(1699643976.901369) vcan0 3E9#01020304
(1699643976.918072) vcan0 3EA#02030405
(1699643976.937094) vcan0 3EB#03040506
(1699643976.956406) vcan0 3EC#04050607
(1699643976.975636) vcan0 3ED#05060708
(1699643976.995540) vcan0 3EE#06070809
(1699643977.012574) vcan0 3EF#0708090A
(1699643977.032181) vcan0 3F0#08090A0B
(1699643977.051219) vcan0 3F1#090A0B0C
(1699643977.071207) vcan0 3F2#0A0B0C0D
(1699643977.091117) vcan0 3F3#0B0C0D0E
(1699643977.110917) vcan0 3F4#0C0D0E0F
(1699643977.131680) vcan0 3F5#0D0E0F10
(1699643977.152849) vcan0 3F6#0E0F1011
(1699643977.172780) vcan0 3F7#0F101112
(1699643977.190524) vcan0 3F8#10111213
(1699643977.208163) vcan0 3F9#11121314
(1699643977.227244) vcan0 3FA#12131415
(1699643977.247351) vcan0 3FB#13141516
(1699643977.265222) vcan0 3FC#14151617
(1699643977.284239) vcan0 3FD#15161718
(1699643977.302711) vcan0 3FE#16171819
(1699643977.322665) vcan0 3FF#1718191A
(1699643977.340886) vcan0 400#18191A1B
(1699643977.358947) vcan0 401#191A1B1C
(1699643977.378720) vcan0 402#1A1B1C1D
(1699643977.397574) vcan0 403#1B1C1D1E
(1699643977.416686) vcan0 404#1C1D1E1F
(1699643977.437213) vcan0 405#1D1E1F20
(1699643977.456757) vcan0 406#1E1F2021
(1699643977.476582) vcan0 407#1F202122
(1699643977.496727) vcan0 408#20212223
(1699643977.516830) vcan0 409#21222324
(1699643977.535401) vcan0 40A#22232425
(1699643977.556365) vcan0 40B#23242526
(1699643977.577885) vcan0 40C#24252627
(1699643977.598253) vcan0 40D#25262728
(1699643977.618769) vcan0 40E#26272829
(1699643977.638243) vcan0 40F#2728292A
(1699643977.658503) vcan0 410#28292A2B
(1699643977.677148) vcan0 411#292A2B2C
(1699643977.694993) vcan0 412#2A2B2C2D
(1699643977.714525) vcan0 413#2B2C2D2E
(1699643977.733394) vcan0 414#2C2D2E2F
(1699643977.753334) vcan0 415#2D2E2F30
(1699643977.770881) vcan0 416#2E2F3031
(1699643977.788831) vcan0 417#2F303132
(1699643977.808778) vcan0 418#30313233
(1699643977.827380) vcan0 419#31323334
(1699643977.847197) vcan0 41A#32333435
(1699643977.866584) vcan0 41B#33343536
(1699643977.886864) vcan0 41C#34353637
(1699643977.905846) vcan0 41D#35363738
(1699643977.924660) vcan0 41E#36373839
(1699643977.942855) vcan0 41F#3738393A
(1699643977.961092) vcan0 420#38393A3B
(1699643977.980864) vcan0 421#393A3B3C
(1699643977.998982) vcan0 422#3A3B3C3D
(1699643978.017956) vcan0 423#3B3C3D3E
(1699643978.035465) vcan0 424#3C3D3E3F
(1699643978.054462) vcan0 425#3D3E3F40
(1699643978.074882) vcan0 426#3E3F4041
(1699643978.093854) vcan0 427#3F404142
(1699643978.113722) vcan0 428#40414243
(1699643978.133920) vcan0 429#41424344
(1699643978.153690) vcan0 42A#42434445
(1699643978.172559) vcan0 42B#43444546
(1699643978.192228) vcan0 42C#44454647
(1699643978.212477) vcan0 42D#45464748
(1699643978.232477) vcan0 42E#46474849
(1699643978.251188) vcan0 42F#4748494A
(1699643978.271085) vcan0 430#48494A4B
(1699643978.290555) vcan0 431#494A4B4C
(1699643978.309718) vcan0 432#4A4B4C4D
(1699643978.328828) vcan0 433#4B4C4D4E
(1699643978.347600) vcan0 434#4C4D4E4F
(1699643978.367692) vcan0 435#4D4E4F50
(1699643978.387716) vcan0 436#4E4F5051
(1699643978.408080) vcan0 437#4F505152
(1699643978.428340) vcan0 438#50515253
(1699643978.448345) vcan0 439#51525354
(1699643978.468871) vcan0 43A#52535455
(1699643978.488082) vcan0 43B#53545556
(1699643978.507500) vcan0 43C#54555657
(1699643978.527239) vcan0 43D#55565758
(1699643978.546654) vcan0 43E#56575859
(1699643978.566389) vcan0 43F#5758595A
(1699643978.583806) vcan0 440#58595A5B
(1699643978.602933) vcan0 441#595A5B5C
(1699643978.623027) vcan0 442#5A5B5C5D
(1699643978.642442) vcan0 443#5B5C5D5E
(1699643978.660785) vcan0 444#5C5D5E5F
(1699643978.680566) vcan0 445#5D5E5F60
(1699643978.700934) vcan0 446#5E5F6061
(1699643978.720667) vcan0 447#5F606162
(1699643978.740820) vcan0 448#60616263
(1699643978.759501) vcan0 449#61626364
(1699643978.780359) vcan0 44A#62636465
(1699643978.801705) vcan0 44B#63646566
(1699643978.821855) vcan0 44C#64656667
